           * c:\users\acer\esim-workspace\abdulmannan\abdulmannan.cir
           Transient Analysis  Tue Oct 04 13:04:27  2022
--------------------------------------------------------------------------------
Index   time                            i1              io              
--------------------------------------------------------------------------------
0	0.000000e+00	0.000000e+00	0.000000e+00	0.000000e+00	
1	1.000000e-05	0.000000e+00	0.000000e+00	0.000000e+00	
2	2.000000e-05	0.000000e+00	0.000000e+00	0.000000e+00	
3	4.000000e-05	0.000000e+00	0.000000e+00	0.000000e+00	
4	8.000000e-05	0.000000e+00	0.000000e+00	0.000000e+00	
5	1.600000e-04	0.000000e+00	0.000000e+00	0.000000e+00	
6	3.200000e-04	0.000000e+00	0.000000e+00	0.000000e+00	
7	6.400000e-04	0.000000e+00	0.000000e+00	0.000000e+00	
8	1.000000e-03	0.000000e+00	0.000000e+00	0.000000e+00	
9	1.064000e-03	0.000000e+00	3.200000e-01	3.200000e-01	
10	1.192000e-03	0.000000e+00	9.600000e-01	9.600000e-01	
11	1.448000e-03	0.000000e+00	2.240000e+00	2.240000e+00	
12	1.448002e-03	0.000000e+00	2.240010e+00	2.240010e+00	
13	1.448002e-03	0.000000e+00	2.240010e+00	2.240010e+00	
14	1.448002e-03	0.000000e+00	2.240012e+00	2.240012e+00	
15	1.448003e-03	0.000000e+00	2.240013e+00	2.240013e+00	
16	1.448003e-03	0.000000e+00	2.240015e+00	2.240015e+00	
17	1.448003e-03	0.000000e+00	2.240015e+00	2.240015e+00	
18	1.448003e-03	0.000000e+00	2.240016e+00	2.240016e+00	
19	1.448004e-03	0.000000e+00	2.240018e+00	2.240018e+00	
20	1.448004e-03	0.000000e+00	2.240021e+00	2.240021e+00	
21	1.448005e-03	0.000000e+00	2.240027e+00	2.240027e+00	
22	1.448008e-03	0.000000e+00	2.240040e+00	2.240040e+00	
23	1.448013e-03	0.000000e+00	2.240066e+00	2.240066e+00	
24	1.448023e-03	0.000000e+00	2.240117e+00	2.240117e+00	
25	1.448044e-03	0.000000e+00	2.240219e+00	2.240219e+00	
26	1.448085e-03	0.000000e+00	2.240424e+00	2.240424e+00	
27	1.448167e-03	0.000000e+00	2.240834e+00	2.240834e+00	
28	1.448331e-03	0.000000e+00	2.241653e+00	2.241653e+00	
29	1.448658e-03	0.000000e+00	2.243291e+00	2.243291e+00	
30	1.449314e-03	0.000000e+00	2.246568e+00	2.246568e+00	
31	1.450624e-03	0.000000e+00	2.253122e+00	2.253122e+00	
32	1.453246e-03	0.000000e+00	2.266229e+00	2.266229e+00	
33	1.458489e-03	0.000000e+00	2.292443e+00	2.292443e+00	
34	1.468974e-03	0.000000e+00	2.344872e+00	2.344872e+00	
35	1.489946e-03	0.000000e+00	2.449730e+00	2.449730e+00	
36	1.531889e-03	0.000000e+00	2.659445e+00	2.659445e+00	
37	1.615775e-03	0.000000e+00	3.078875e+00	3.078875e+00	
38	1.783547e-03	0.000000e+00	3.917736e+00	3.917736e+00	
39	2.000000e-03	0.000000e+00	5.000000e+00	5.000000e+00	
40	2.033554e-03	0.000000e+00	5.000000e+00	5.000000e+00	
41	2.100663e-03	0.000000e+00	5.000000e+00	5.000000e+00	
42	2.234881e-03	0.000000e+00	5.000000e+00	5.000000e+00	
43	2.503316e-03	0.000000e+00	5.000000e+00	5.000000e+00	
44	3.040187e-03	0.000000e+00	5.000000e+00	5.000000e+00	
45	4.113929e-03	0.000000e+00	5.000000e+00	5.000000e+00	
46	6.261413e-03	0.000000e+00	5.000000e+00	5.000000e+00	
47	1.055638e-02	0.000000e+00	5.000000e+00	5.000000e+00	
48	1.914631e-02	0.000000e+00	5.000000e+00	5.000000e+00	
49	3.632618e-02	0.000000e+00	5.000000e+00	5.000000e+00	
50	7.068592e-02	0.000000e+00	5.000000e+00	5.000000e+00	
51	1.394054e-01	0.000000e+00	5.000000e+00	5.000000e+00	
52	2.768444e-01	0.000000e+00	5.000000e+00	5.000000e+00	
53	5.517223e-01	0.000000e+00	5.000000e+00	5.000000e+00	
54	1.101478e+00	0.000000e+00	5.000000e+00	5.000000e+00	

Index   time                            i1              io              
--------------------------------------------------------------------------------
55	1.901478e+00	0.000000e+00	5.000000e+00	5.000000e+00	
56	2.502000e+00	0.000000e+00	5.000000e+00	5.000000e+00	
57	2.502100e+00	0.000000e+00	4.500000e+00	5.000000e+00	
58	2.502300e+00	0.000000e+00	3.500000e+00	5.000000e+00	
59	2.502700e+00	0.000000e+00	1.500000e+00	5.000000e+00	
60	2.503000e+00	0.000000e+00	0.000000e+00	5.000000e+00	
61	2.503080e+00	0.000000e+00	0.000000e+00	5.000000e+00	
62	2.503240e+00	0.000000e+00	0.000000e+00	5.000000e+00	
63	2.503560e+00	0.000000e+00	0.000000e+00	5.000000e+00	
64	2.504200e+00	0.000000e+00	0.000000e+00	5.000000e+00	
65	2.505480e+00	0.000000e+00	0.000000e+00	5.000000e+00	
66	2.508040e+00	0.000000e+00	0.000000e+00	5.000000e+00	
67	2.513160e+00	0.000000e+00	0.000000e+00	5.000000e+00	
68	2.523400e+00	0.000000e+00	0.000000e+00	5.000000e+00	
69	2.543880e+00	0.000000e+00	0.000000e+00	5.000000e+00	
70	2.584840e+00	0.000000e+00	0.000000e+00	5.000000e+00	
71	2.666760e+00	0.000000e+00	0.000000e+00	5.000000e+00	
72	2.830600e+00	0.000000e+00	0.000000e+00	5.000000e+00	
73	3.158280e+00	0.000000e+00	0.000000e+00	5.000000e+00	
74	3.813640e+00	0.000000e+00	0.000000e+00	5.000000e+00	
75	4.613640e+00	0.000000e+00	0.000000e+00	5.000000e+00	
76	5.001000e+00	0.000000e+00	0.000000e+00	5.000000e+00	
77	5.001100e+00	0.000000e+00	5.000000e-01	5.000000e+00	
78	5.001300e+00	0.000000e+00	1.500000e+00	5.000000e+00	
79	5.001700e+00	0.000000e+00	3.500000e+00	5.000000e+00	
80	5.002000e+00	0.000000e+00	5.000000e+00	5.000000e+00	
81	5.002080e+00	0.000000e+00	5.000000e+00	4.600000e+00	
82	5.002240e+00	0.000000e+00	5.000000e+00	3.800000e+00	
83	5.002560e+00	0.000000e+00	5.000000e+00	2.200000e+00	
84	5.003000e+00	0.000000e+00	5.000000e+00	2.772005e-12	
85	5.003000e+00	0.000000e+00	5.000000e+00	0.000000e+00	
86	5.003000e+00	0.000000e+00	5.000000e+00	0.000000e+00	
87	5.003000e+00	0.000000e+00	5.000000e+00	0.000000e+00	
88	5.003000e+00	0.000000e+00	5.000000e+00	0.000000e+00	
89	5.003000e+00	0.000000e+00	5.000000e+00	0.000000e+00	
90	5.003000e+00	0.000000e+00	5.000000e+00	0.000000e+00	
91	5.003000e+00	0.000000e+00	5.000000e+00	0.000000e+00	
92	5.003000e+00	0.000000e+00	5.000000e+00	0.000000e+00	
93	5.003000e+00	0.000000e+00	5.000000e+00	0.000000e+00	
94	5.003000e+00	0.000000e+00	5.000000e+00	0.000000e+00	
95	5.003000e+00	0.000000e+00	5.000000e+00	0.000000e+00	
96	5.003000e+00	0.000000e+00	5.000000e+00	0.000000e+00	
97	5.003000e+00	0.000000e+00	5.000000e+00	0.000000e+00	
98	5.003000e+00	0.000000e+00	5.000000e+00	0.000000e+00	
99	5.003000e+00	0.000000e+00	5.000000e+00	0.000000e+00	
100	5.003000e+00	0.000000e+00	5.000000e+00	0.000000e+00	
101	5.003000e+00	0.000000e+00	5.000000e+00	0.000000e+00	
102	5.003001e+00	0.000000e+00	5.000000e+00	0.000000e+00	
103	5.003001e+00	0.000000e+00	5.000000e+00	0.000000e+00	
104	5.003003e+00	0.000000e+00	5.000000e+00	0.000000e+00	
105	5.003005e+00	0.000000e+00	5.000000e+00	0.000000e+00	
106	5.003010e+00	0.000000e+00	5.000000e+00	0.000000e+00	
107	5.003021e+00	0.000000e+00	5.000000e+00	0.000000e+00	
108	5.003042e+00	0.000000e+00	5.000000e+00	0.000000e+00	
109	5.003084e+00	0.000000e+00	5.000000e+00	0.000000e+00	
110	5.003168e+00	0.000000e+00	5.000000e+00	0.000000e+00	
111	5.003336e+00	0.000000e+00	5.000000e+00	0.000000e+00	
112	5.003671e+00	0.000000e+00	5.000000e+00	0.000000e+00	

Index   time                            i1              io              
--------------------------------------------------------------------------------
113	5.004342e+00	0.000000e+00	5.000000e+00	0.000000e+00	
114	5.005684e+00	0.000000e+00	5.000000e+00	0.000000e+00	
115	5.008369e+00	0.000000e+00	5.000000e+00	0.000000e+00	
116	5.013737e+00	0.000000e+00	5.000000e+00	0.000000e+00	
117	5.024475e+00	0.000000e+00	5.000000e+00	0.000000e+00	
118	5.045950e+00	0.000000e+00	5.000000e+00	0.000000e+00	
119	5.088899e+00	0.000000e+00	5.000000e+00	0.000000e+00	
120	5.174799e+00	0.000000e+00	5.000000e+00	0.000000e+00	
121	5.346597e+00	0.000000e+00	5.000000e+00	0.000000e+00	
122	5.690195e+00	0.000000e+00	5.000000e+00	0.000000e+00	
123	6.377390e+00	0.000000e+00	5.000000e+00	0.000000e+00	
124	7.177390e+00	0.000000e+00	5.000000e+00	0.000000e+00	
125	7.502000e+00	0.000000e+00	5.000000e+00	0.000000e+00	
126	7.502100e+00	0.000000e+00	4.500000e+00	0.000000e+00	
127	7.502300e+00	0.000000e+00	3.500000e+00	0.000000e+00	
128	7.502700e+00	0.000000e+00	1.500000e+00	0.000000e+00	
129	7.503000e+00	0.000000e+00	0.000000e+00	0.000000e+00	
130	7.503080e+00	0.000000e+00	0.000000e+00	0.000000e+00	
131	7.503240e+00	0.000000e+00	0.000000e+00	0.000000e+00	
132	7.503560e+00	0.000000e+00	0.000000e+00	0.000000e+00	
133	7.504200e+00	0.000000e+00	0.000000e+00	0.000000e+00	
134	7.505480e+00	0.000000e+00	0.000000e+00	0.000000e+00	
135	7.508040e+00	0.000000e+00	0.000000e+00	0.000000e+00	
136	7.513160e+00	0.000000e+00	0.000000e+00	0.000000e+00	
137	7.523400e+00	0.000000e+00	0.000000e+00	0.000000e+00	
138	7.543880e+00	0.000000e+00	0.000000e+00	0.000000e+00	
139	7.584840e+00	0.000000e+00	0.000000e+00	0.000000e+00	
140	7.666760e+00	0.000000e+00	0.000000e+00	0.000000e+00	
141	7.830600e+00	0.000000e+00	0.000000e+00	0.000000e+00	
142	8.158280e+00	0.000000e+00	0.000000e+00	0.000000e+00	
143	8.813640e+00	0.000000e+00	0.000000e+00	0.000000e+00	
144	9.613640e+00	0.000000e+00	0.000000e+00	0.000000e+00	
145	1.000100e+01	0.000000e+00	0.000000e+00	0.000000e+00	
146	1.000110e+01	0.000000e+00	5.000000e-01	5.000000e-01	
147	1.000130e+01	0.000000e+00	1.500000e+00	1.500000e+00	
148	1.000130e+01	0.000000e+00	1.500010e+00	1.500010e+00	
149	1.000130e+01	0.000000e+00	1.500010e+00	1.500010e+00	
150	1.000130e+01	0.000000e+00	1.500011e+00	1.500011e+00	
151	1.000130e+01	0.000000e+00	1.500013e+00	1.500013e+00	
152	1.000130e+01	0.000000e+00	1.500015e+00	1.500015e+00	
153	1.000130e+01	0.000000e+00	1.500015e+00	1.500015e+00	
154	1.000130e+01	0.000000e+00	1.500016e+00	1.500016e+00	
155	1.000130e+01	0.000000e+00	1.500018e+00	1.500018e+00	
156	1.000130e+01	0.000000e+00	1.500021e+00	1.500021e+00	
157	1.000130e+01	0.000000e+00	1.500027e+00	1.500027e+00	
158	1.000130e+01	0.000000e+00	1.500040e+00	1.500040e+00	
159	1.000130e+01	0.000000e+00	1.500066e+00	1.500066e+00	
160	1.000130e+01	0.000000e+00	1.500117e+00	1.500117e+00	
161	1.000130e+01	0.000000e+00	1.500219e+00	1.500219e+00	
162	1.000130e+01	0.000000e+00	1.500424e+00	1.500424e+00	
163	1.000130e+01	0.000000e+00	1.500834e+00	1.500834e+00	
164	1.000130e+01	0.000000e+00	1.501653e+00	1.501653e+00	
165	1.000130e+01	0.000000e+00	1.503291e+00	1.503291e+00	
166	1.000130e+01	0.000000e+00	1.506568e+00	1.506568e+00	
167	1.000130e+01	0.000000e+00	1.513122e+00	1.513122e+00	
168	1.000131e+01	0.000000e+00	1.526229e+00	1.526229e+00	
169	1.000131e+01	0.000000e+00	1.552443e+00	1.552443e+00	
170	1.000132e+01	0.000000e+00	1.604872e+00	1.604872e+00	

Index   time                            i1              io              
--------------------------------------------------------------------------------
171	1.000134e+01	0.000000e+00	1.709730e+00	1.709730e+00	
172	1.000138e+01	0.000000e+00	1.919445e+00	1.919445e+00	
173	1.000147e+01	0.000000e+00	2.338875e+00	2.338875e+00	
174	1.000164e+01	0.000000e+00	3.177736e+00	3.177736e+00	
175	1.000197e+01	0.000000e+00	4.855458e+00	4.855458e+00	
176	1.000200e+01	0.000000e+00	5.000000e+00	5.000000e+00	
177	1.000206e+01	0.000000e+00	5.000000e+00	5.000000e+00	
178	1.000217e+01	0.000000e+00	5.000000e+00	5.000000e+00	
179	1.000240e+01	0.000000e+00	5.000000e+00	5.000000e+00	
180	1.000287e+01	0.000000e+00	5.000000e+00	5.000000e+00	
181	1.000300e+01	0.000000e+00	5.000000e+00	5.000000e+00	
182	1.000309e+01	0.000000e+00	5.000000e+00	5.000000e+00	
183	1.000328e+01	0.000000e+00	5.000000e+00	5.000000e+00	
184	1.000365e+01	0.000000e+00	5.000000e+00	5.000000e+00	
185	1.000439e+01	0.000000e+00	5.000000e+00	5.000000e+00	
186	1.000587e+01	0.000000e+00	5.000000e+00	5.000000e+00	
187	1.000883e+01	0.000000e+00	5.000000e+00	5.000000e+00	
188	1.001475e+01	0.000000e+00	5.000000e+00	5.000000e+00	
189	1.002659e+01	0.000000e+00	5.000000e+00	5.000000e+00	
190	1.005027e+01	0.000000e+00	5.000000e+00	5.000000e+00	
191	1.009763e+01	0.000000e+00	5.000000e+00	5.000000e+00	
192	1.019236e+01	0.000000e+00	5.000000e+00	5.000000e+00	
193	1.038182e+01	0.000000e+00	5.000000e+00	5.000000e+00	
194	1.076072e+01	0.000000e+00	5.000000e+00	5.000000e+00	
195	1.151854e+01	0.000000e+00	5.000000e+00	5.000000e+00	
196	1.231854e+01	0.000000e+00	5.000000e+00	5.000000e+00	
197	1.250200e+01	0.000000e+00	5.000000e+00	5.000000e+00	
198	1.250210e+01	0.000000e+00	4.500000e+00	5.000000e+00	
199	1.250230e+01	0.000000e+00	3.500000e+00	5.000000e+00	
200	1.250270e+01	0.000000e+00	1.500000e+00	5.000000e+00	
201	1.250300e+01	0.000000e+00	4.992451e-12	5.000000e+00	
202	1.250300e+01	0.000000e+00	0.000000e+00	5.000000e+00	
203	1.250300e+01	0.000000e+00	0.000000e+00	5.000000e+00	
204	1.250300e+01	0.000000e+00	0.000000e+00	5.000000e+00	
205	1.250300e+01	0.000000e+00	0.000000e+00	5.000000e+00	
206	1.250300e+01	0.000000e+00	0.000000e+00	5.000000e+00	
207	1.250300e+01	0.000000e+00	0.000000e+00	5.000000e+00	
208	1.250300e+01	0.000000e+00	0.000000e+00	5.000000e+00	
209	1.250300e+01	0.000000e+00	0.000000e+00	5.000000e+00	
210	1.250300e+01	0.000000e+00	0.000000e+00	5.000000e+00	
211	1.250300e+01	0.000000e+00	0.000000e+00	5.000000e+00	
212	1.250300e+01	0.000000e+00	0.000000e+00	5.000000e+00	
213	1.250300e+01	0.000000e+00	0.000000e+00	5.000000e+00	
214	1.250300e+01	0.000000e+00	0.000000e+00	5.000000e+00	
215	1.250300e+01	0.000000e+00	0.000000e+00	5.000000e+00	
216	1.250300e+01	0.000000e+00	0.000000e+00	5.000000e+00	
217	1.250300e+01	0.000000e+00	0.000000e+00	5.000000e+00	
218	1.250300e+01	0.000000e+00	0.000000e+00	5.000000e+00	
219	1.250300e+01	0.000000e+00	0.000000e+00	5.000000e+00	
220	1.250300e+01	0.000000e+00	0.000000e+00	5.000000e+00	
221	1.250300e+01	0.000000e+00	0.000000e+00	5.000000e+00	
222	1.250301e+01	0.000000e+00	0.000000e+00	5.000000e+00	
223	1.250301e+01	0.000000e+00	0.000000e+00	5.000000e+00	
224	1.250302e+01	0.000000e+00	0.000000e+00	5.000000e+00	
225	1.250304e+01	0.000000e+00	0.000000e+00	5.000000e+00	
226	1.250308e+01	0.000000e+00	0.000000e+00	5.000000e+00	
227	1.250317e+01	0.000000e+00	0.000000e+00	5.000000e+00	
228	1.250334e+01	0.000000e+00	0.000000e+00	5.000000e+00	

Index   time                            i1              io              
--------------------------------------------------------------------------------
229	1.250367e+01	0.000000e+00	0.000000e+00	5.000000e+00	
230	1.250434e+01	0.000000e+00	0.000000e+00	5.000000e+00	
231	1.250568e+01	0.000000e+00	0.000000e+00	5.000000e+00	
232	1.250837e+01	0.000000e+00	0.000000e+00	5.000000e+00	
233	1.251374e+01	0.000000e+00	0.000000e+00	5.000000e+00	
234	1.252447e+01	0.000000e+00	0.000000e+00	5.000000e+00	
235	1.254595e+01	0.000000e+00	0.000000e+00	5.000000e+00	
236	1.258890e+01	0.000000e+00	0.000000e+00	5.000000e+00	
237	1.267480e+01	0.000000e+00	0.000000e+00	5.000000e+00	
238	1.284660e+01	0.000000e+00	0.000000e+00	5.000000e+00	
239	1.319019e+01	0.000000e+00	0.000000e+00	5.000000e+00	
240	1.387739e+01	0.000000e+00	0.000000e+00	5.000000e+00	
241	1.467739e+01	0.000000e+00	0.000000e+00	5.000000e+00	
242	1.500100e+01	0.000000e+00	0.000000e+00	5.000000e+00	
243	1.500110e+01	0.000000e+00	5.000000e-01	5.000000e+00	
244	1.500130e+01	0.000000e+00	1.500000e+00	5.000000e+00	
245	1.500130e+01	0.000000e+00	1.500010e+00	5.000000e+00	
246	1.500130e+01	0.000000e+00	1.500010e+00	5.000000e+00	
247	1.500130e+01	0.000000e+00	1.500011e+00	5.000000e+00	
248	1.500130e+01	0.000000e+00	1.500013e+00	5.000000e+00	
249	1.500130e+01	0.000000e+00	1.500015e+00	5.000000e+00	
250	1.500130e+01	0.000000e+00	1.500015e+00	5.000000e+00	
251	1.500130e+01	0.000000e+00	1.500016e+00	5.000000e+00	
252	1.500130e+01	0.000000e+00	1.500018e+00	5.000000e+00	
253	1.500130e+01	0.000000e+00	1.500021e+00	5.000000e+00	
254	1.500130e+01	0.000000e+00	1.500027e+00	5.000000e+00	
255	1.500130e+01	0.000000e+00	1.500040e+00	5.000000e+00	
256	1.500130e+01	0.000000e+00	1.500066e+00	5.000000e+00	
257	1.500130e+01	0.000000e+00	1.500117e+00	5.000000e+00	
258	1.500130e+01	0.000000e+00	1.500219e+00	5.000000e+00	
259	1.500130e+01	0.000000e+00	1.500424e+00	5.000000e+00	
260	1.500130e+01	0.000000e+00	1.500834e+00	5.000000e+00	
261	1.500130e+01	0.000000e+00	1.501653e+00	5.000000e+00	
262	1.500130e+01	0.000000e+00	1.503291e+00	5.000000e+00	
263	1.500130e+01	0.000000e+00	1.506568e+00	5.000000e+00	
264	1.500130e+01	0.000000e+00	1.513122e+00	5.000000e+00	
265	1.500131e+01	0.000000e+00	1.526229e+00	5.000000e+00	
266	1.500131e+01	0.000000e+00	1.552443e+00	5.000000e+00	
267	1.500132e+01	0.000000e+00	1.604872e+00	5.000000e+00	
268	1.500134e+01	0.000000e+00	1.709730e+00	5.000000e+00	
269	1.500138e+01	0.000000e+00	1.919445e+00	5.000000e+00	
270	1.500147e+01	0.000000e+00	2.338875e+00	5.000000e+00	
271	1.500164e+01	0.000000e+00	3.177736e+00	5.000000e+00	
272	1.500197e+01	0.000000e+00	4.855458e+00	5.000000e+00	
273	1.500200e+01	0.000000e+00	5.000000e+00	5.000000e+00	
274	1.500206e+01	0.000000e+00	5.000000e+00	4.710916e+00	
275	1.500217e+01	0.000000e+00	5.000000e+00	4.132748e+00	
276	1.500240e+01	0.000000e+00	5.000000e+00	2.976413e+00	
277	1.500287e+01	0.000000e+00	5.000000e+00	6.637423e-01	
278	1.500300e+01	0.000000e+00	5.000000e+00	7.212897e-12	
279	1.500309e+01	0.000000e+00	5.000000e+00	0.000000e+00	
280	1.500328e+01	0.000000e+00	5.000000e+00	0.000000e+00	
281	1.500365e+01	0.000000e+00	5.000000e+00	0.000000e+00	
282	1.500439e+01	0.000000e+00	5.000000e+00	0.000000e+00	
283	1.500587e+01	0.000000e+00	5.000000e+00	0.000000e+00	
284	1.500883e+01	0.000000e+00	5.000000e+00	0.000000e+00	
285	1.501475e+01	0.000000e+00	5.000000e+00	0.000000e+00	
286	1.502659e+01	0.000000e+00	5.000000e+00	0.000000e+00	

Index   time                            i1              io              
--------------------------------------------------------------------------------
287	1.505027e+01	0.000000e+00	5.000000e+00	0.000000e+00	
288	1.509763e+01	0.000000e+00	5.000000e+00	0.000000e+00	
289	1.519236e+01	0.000000e+00	5.000000e+00	0.000000e+00	
290	1.538182e+01	0.000000e+00	5.000000e+00	0.000000e+00	
291	1.576072e+01	0.000000e+00	5.000000e+00	0.000000e+00	
292	1.651854e+01	0.000000e+00	5.000000e+00	0.000000e+00	
293	1.731854e+01	0.000000e+00	5.000000e+00	0.000000e+00	
294	1.750200e+01	0.000000e+00	5.000000e+00	0.000000e+00	
295	1.750210e+01	0.000000e+00	4.500000e+00	0.000000e+00	
296	1.750230e+01	0.000000e+00	3.500000e+00	0.000000e+00	
297	1.750270e+01	0.000000e+00	1.500000e+00	0.000000e+00	
298	1.750300e+01	0.000000e+00	4.992451e-12	0.000000e+00	
299	1.750300e+01	0.000000e+00	0.000000e+00	0.000000e+00	
300	1.750300e+01	0.000000e+00	0.000000e+00	0.000000e+00	
301	1.750300e+01	0.000000e+00	0.000000e+00	0.000000e+00	
302	1.750300e+01	0.000000e+00	0.000000e+00	0.000000e+00	
303	1.750300e+01	0.000000e+00	0.000000e+00	0.000000e+00	
304	1.750300e+01	0.000000e+00	0.000000e+00	0.000000e+00	
305	1.750300e+01	0.000000e+00	0.000000e+00	0.000000e+00	
306	1.750300e+01	0.000000e+00	0.000000e+00	0.000000e+00	
307	1.750300e+01	0.000000e+00	0.000000e+00	0.000000e+00	
308	1.750300e+01	0.000000e+00	0.000000e+00	0.000000e+00	
309	1.750300e+01	0.000000e+00	0.000000e+00	0.000000e+00	
310	1.750300e+01	0.000000e+00	0.000000e+00	0.000000e+00	
311	1.750300e+01	0.000000e+00	0.000000e+00	0.000000e+00	
312	1.750300e+01	0.000000e+00	0.000000e+00	0.000000e+00	
313	1.750300e+01	0.000000e+00	0.000000e+00	0.000000e+00	
314	1.750300e+01	0.000000e+00	0.000000e+00	0.000000e+00	
315	1.750300e+01	0.000000e+00	0.000000e+00	0.000000e+00	
316	1.750300e+01	0.000000e+00	0.000000e+00	0.000000e+00	
317	1.750300e+01	0.000000e+00	0.000000e+00	0.000000e+00	
318	1.750300e+01	0.000000e+00	0.000000e+00	0.000000e+00	
319	1.750301e+01	0.000000e+00	0.000000e+00	0.000000e+00	
320	1.750301e+01	0.000000e+00	0.000000e+00	0.000000e+00	
321	1.750302e+01	0.000000e+00	0.000000e+00	0.000000e+00	
322	1.750304e+01	0.000000e+00	0.000000e+00	0.000000e+00	
323	1.750308e+01	0.000000e+00	0.000000e+00	0.000000e+00	
324	1.750317e+01	0.000000e+00	0.000000e+00	0.000000e+00	
325	1.750334e+01	0.000000e+00	0.000000e+00	0.000000e+00	
